
T09D0 000:073 SEGGER J-Link V6.00g Log File (0001ms, 0026ms total)
T09D0 000:073 DLL Compiled: Aug 17 2016 13:23:29 (0001ms, 0026ms total)
T09D0 000:073 Logging started @ 2018-09-01 14:02 (0001ms, 0026ms total)
T09D0 000:074 JLINK_SetWarnOutHandler(...) (0000ms, 0026ms total)
T09D0 000:074 JLINK_OpenEx(...)
Firmware: J-Link ARM V8 compiled Nov 28 2014 13:44:46
Hardware: V8.00
S/N: 87461523
Feature(s): RDI, FlashBP, FlashDL, JFlash, GDBFull  returns O.K. (0019ms, 0045ms total)
T09D0 000:093 JLINK_SetErrorOutHandler(...) (0000ms, 0045ms total)
T09D0 000:093 JLINK_ExecCommand("ProjectFile = "C:\软件版本管理\GZRSDZComp_Pro\项目代码\DHCP\Project\RVMDK（uv4）\JLinkSettings.ini"", ...).   returns 0x00 (0123ms, 0168ms total)
T09D0 000:219 JLINK_ExecCommand("Device = STM32F103VE", ...). Device "STM32F103VE" selected.  returns 0x00 (0004ms, 0172ms total)
T09D0 000:224 JLINK_ExecCommand("DisableConnectionTimeout", ...).   returns 0x01 (0000ms, 0173ms total)
T09D0 000:224 JLINK_GetHardwareVersion()  returns 0x13880 (0000ms, 0173ms total)
T09D0 000:224 JLINK_GetDLLVersion()  returns 60007 (0000ms, 0173ms total)
T09D0 000:224 JLINK_GetFirmwareString(...) (0000ms, 0173ms total)
T09D0 000:234 JLINK_GetDLLVersion()  returns 60007 (0000ms, 0173ms total)
T09D0 000:234 JLINK_GetCompileDateTime() (0000ms, 0173ms total)
T09D0 000:237 JLINK_GetFirmwareString(...) (0000ms, 0173ms total)
T09D0 000:247 JLINK_GetHardwareVersion()  returns 0x13880 (0000ms, 0173ms total)
T09D0 000:260 JLINK_TIF_Select(JLINKARM_TIF_SWD)  returns 0x00 (0002ms, 0175ms total)
T09D0 000:262 JLINK_SetSpeed(5000) (0001ms, 0176ms total)
T09D0 000:263 JLINK_GetId() >0x108 TIF>Found SWD-DP with ID 0x1BA01477 >0x0D TIF> >0x28 TIF> >0x0D TIF> >0x28 TIF> >0x0D TIF> >0x28 TIF> >0x0D TIF> >0x28 TIF> >0x0D TIF> >0x21 TIF> >0x0D TIF> >0x28 TIF> >0x0D TIF> >0x28 TIF> >0x0D TIF> >0x28 TIF> >0x0D TIF> >0x21 TIF> >0x0D TIF> >0x21 TIF> >0x0D TIF> >0x28 TIF> >0x0D TIF> >0x21 TIF> >0x0D TIF> >0x21 TIF> >0x0D TIF> >0x28 TIF> >0x0D TIF> >0x21 TIF> >0x0D TIF> >0x21 TIF> >0x0D TIF> >0x28 TIF> >0x0D TIF> >0x21 TIF> >0x0D TIF> >0x21 TIF> >0x0D TIF>
 >0x28 TIF> >0x0D TIF> >0x21 TIF> >0x0D TIF> >0x21 TIF> >0x0D TIF> >0x28 TIF> >0x0D TIF> >0x21 TIF> >0x0D TIF> >0x21 TIF> >0x0D TIF> >0x28 TIF> >0x0D TIF> >0x21 TIF> >0x0D TIF> >0x21 TIF> >0x108 TIF>Found SWD-DP with ID 0x1BA01477 >0x0D TIF> >0x28 TIF> >0x0D TIF> >0x28 TIF> >0x0D TIF> >0x28 TIF> >0x0D TIF> >0x28 TIF> >0x0D TIF> >0x21 TIF> >0x0D TIF> >0x28 TIF> >0x0D TIF> >0x28 TIF> >0x0D TIF> >0x21 TIF> >0x0D TIF> >0x21 TIF> >0x0D TIF> >0x21 TIF>AP-IDR: 0x14770011, Type: AHB-AP >0x0D TIF> >0x28 TIF>
 >0x0D TIF> >0x28 TIF> >0x0D TIF> >0x28 TIF> >0x0D TIF> >0x21 TIF> >0x0D TIF> >0x21 TIF> >0x0D TIF> >0x28 TIF> >0x0D TIF> >0x21 TIF> >0x0D TIF> >0x21 TIF>Found Cortex-M3 r1p1, Little endian. -- CPU_ReadMem(4 bytes @ 0xE000EDF0) -- CPU_ReadMem(4 bytes @ 0xE0002000)FPUnit: 6 code (BP) slots and 2 literal slots -- CPU_ReadMem(4 bytes @ 0xE000EDFC) -- CPU_ReadMem(4 bytes @ 0xE0001000) -- CPU_WriteMem(4 bytes @ 0xE0001000) -- CPU_ReadMem(4 bytes @ 0xE000ED88) -- CPU_WriteMem(4 bytes @ 0xE000ED88)
 -- CPU_ReadMem(4 bytes @ 0xE000ED88) -- CPU_WriteMem(4 bytes @ 0xE000ED88)CoreSight components:ROMTbl 0 @ E00FF000 -- CPU_ReadMem(16 bytes @ 0xE00FF000) -- CPU_ReadMem(16 bytes @ 0xE000EFF0) -- CPU_ReadMem(16 bytes @ 0xE000EFE0)ROMTbl 0 [0]: FFF0F000, CID: B105E00D, PID: 001BB000 SCS -- CPU_ReadMem(16 bytes @ 0xE0001FF0) -- CPU_ReadMem(16 bytes @ 0xE0001FE0)ROMTbl 0 [1]: FFF02000, CID: B105E00D, PID: 001BB002 DWT -- CPU_ReadMem(16 bytes @ 0xE0002FF0) -- CPU_ReadMem(16 bytes @ 0xE0002FE0)
ROMTbl 0 [2]: FFF03000, CID: B105E00D, PID: 000BB003 FPB -- CPU_ReadMem(16 bytes @ 0xE0000FF0) -- CPU_ReadMem(16 bytes @ 0xE0000FE0)ROMTbl 0 [3]: FFF01000, CID: B105E00D, PID: 001BB001 ITM -- CPU_ReadMem(16 bytes @ 0xE00FF010) -- CPU_ReadMem(16 bytes @ 0xE0040FF0) -- CPU_ReadMem(16 bytes @ 0xE0040FE0)ROMTbl 0 [4]: FFF41000, CID: B105900D, PID: 001BB923 TPIU-Lite -- CPU_ReadMem(16 bytes @ 0xE0041FF0) -- CPU_ReadMem(16 bytes @ 0xE0041FE0)ROMTbl 0 [5]: FFF42000, CID: B105900D, PID: 101BB924 ETM-M3
 >0x0D TIF> >0x21 TIF>  returns 0x1BA01477 (0136ms, 0312ms total)
T09D0 000:399 JLINK_GetDLLVersion()  returns 60007 (0000ms, 0312ms total)
T09D0 000:399 JLINK_CORE_GetFound()  returns 0x30000FF (0000ms, 0312ms total)
T09D0 000:399 JLINK_GetDebugInfo(0x100) -- Value=0xE00FF000  returns 0x00 (0000ms, 0312ms total)
T09D0 000:402 JLINK_GetDebugInfo(0x100) -- Value=0xE00FF000  returns 0x00 (0000ms, 0312ms total)
T09D0 000:402 JLINK_GetDebugInfo(0x101) -- Value=0xE0041000  returns 0x00 (0000ms, 0312ms total)
T09D0 000:402 JLINK_GetDebugInfo(0x102) -- Value=0x00000000  returns 0x00 (0000ms, 0312ms total)
T09D0 000:402 JLINK_GetDebugInfo(0x103) -- Value=0xE0040000  returns 0x00 (0001ms, 0313ms total)
T09D0 000:403 JLINK_GetDebugInfo(0x104) -- Value=0xE0000000  returns 0x00 (0000ms, 0313ms total)
T09D0 000:403 JLINK_GetDebugInfo(0x105) -- Value=0xE0001000  returns 0x00 (0000ms, 0313ms total)
T09D0 000:403 JLINK_GetDebugInfo(0x106) -- Value=0xE0002000  returns 0x00 (0000ms, 0313ms total)
T09D0 000:403 JLINK_GetDebugInfo(0x107) -- Value=0xE000E000  returns 0x00 (0000ms, 0313ms total)
T09D0 000:403 JLINK_GetDebugInfo(0x10C) -- Value=0xE000EDF0  returns 0x00 (0000ms, 0313ms total)
T09D0 000:403 JLINK_ReadMemU32(0xE000ED00, 0x0001 Items, ...) -- CPU is running -- CPU_ReadMem(4 bytes @ 0xE000ED00) - Data: 31 C2 1F 41  returns 0x01 (0001ms, 0314ms total)
T09D0 000:404 JLINK_SetResetType(JLINKARM_RESET_TYPE_NORMAL)  returns JLINKARM_RESET_TYPE_NORMAL (0000ms, 0314ms total)
T09D0 000:404 JLINK_Reset() -- CPU is running -- CPU_WriteMem(4 bytes @ 0xE000EDF0) -- CPU is running -- CPU_WriteMem(4 bytes @ 0xE000EDFC) >0x35 TIF> -- CPU is running -- CPU_WriteMem(4 bytes @ 0xE000ED0C) -- CPU is running -- CPU_ReadMem(4 bytes @ 0xE000EDF0) -- CPU is running -- CPU_ReadMem(4 bytes @ 0xE000EDF0) -- CPU is running -- CPU_WriteMem(4 bytes @ 0xE000EDF0) -- CPU is running -- CPU_WriteMem(4 bytes @ 0xE000EDFC) -- CPU is running -- CPU_ReadMem(4 bytes @ 0xE000EDF0)
 -- CPU_WriteMem(4 bytes @ 0xE0002000) -- CPU_ReadMem(4 bytes @ 0xE000EDFC) -- CPU_ReadMem(4 bytes @ 0xE0001000) (0022ms, 0336ms total)
T09D0 000:426 JLINK_Halt()  returns 0x00 (0000ms, 0336ms total)
T09D0 000:426 JLINK_IsHalted()  returns TRUE (0000ms, 0336ms total)
T09D0 000:426 JLINK_ReadMemU32(0xE000EDF0, 0x0001 Items, ...) -- CPU_ReadMem(4 bytes @ 0xE000EDF0) - Data: 03 00 03 00  returns 0x01 (0001ms, 0337ms total)
T09D0 000:427 JLINK_WriteU32(0xE000EDF0, 0xA05F0003) -- CPU_WriteMem(4 bytes @ 0xE000EDF0)  returns 0x00 (0001ms, 0338ms total)
T09D0 000:428 JLINK_WriteU32(0xE000EDFC, 0x01000000) -- CPU_WriteMem(4 bytes @ 0xE000EDFC)  returns 0x00 (0001ms, 0339ms total)
T09D0 000:442 JLINK_GetHWStatus(...)  returns 0x00 (0000ms, 0339ms total)
T09D0 000:451 JLINK_GetNumBPUnits(Type = 0xFFFFFF00)  returns 0x06 (0000ms, 0339ms total)
T09D0 000:451 JLINK_GetNumBPUnits(Type = 0xF0)  returns 0x2000 (0000ms, 0339ms total)
T09D0 000:451 JLINK_GetNumWPUnits()  returns 0x04 (0000ms, 0339ms total)
T09D0 000:466 JLINK_GetSpeed()  returns 0xFA0 (0000ms, 0339ms total)
T09D0 000:472 JLINK_ReadMemU32(0xE000E004, 0x0001 Items, ...) -- CPU_ReadMem(4 bytes @ 0xE000E004) - Data: 01 00 00 00  returns 0x01 (0001ms, 0340ms total)
T09D0 000:473 JLINK_ReadMemU32(0xE000E004, 0x0001 Items, ...) -- CPU_ReadMem(4 bytes @ 0xE000E004) - Data: 01 00 00 00  returns 0x01 (0001ms, 0341ms total)
T09D0 000:474 JLINK_WriteMem(0xE0001000, 0x001C Bytes, ...) - Data: 01 00 00 00 00 00 00 00 00 00 00 00 00 00 00 00 ... -- CPU_WriteMem(28 bytes @ 0xE0001000)  returns 0x1C (0001ms, 0342ms total)
T09D0 000:475 JLINK_ReadMem (0xE0001000, 0x001C Bytes, ...) -- CPU_ReadMem(28 bytes @ 0xE0001000) - Data: 01 00 00 40 00 00 00 00 00 00 00 00 00 00 00 00 ...  returns 0x00 (0001ms, 0343ms total)
T09D0 000:476 JLINK_Halt()  returns 0x00 (0000ms, 0343ms total)
T09D0 000:476 JLINK_IsHalted()  returns TRUE (0000ms, 0343ms total)
T09D0 000:480 JLINK_WriteMem(0x20000000, 0x0164 Bytes, ...) - Data: 00 BE 0A E0 0D 78 2D 06 68 40 08 24 40 00 00 D3 ... -- CPU_WriteMem(356 bytes @ 0x20000000)  returns 0x164 (0004ms, 0347ms total)
T09D0 000:484 JLINK_WriteReg(R0, 0x08000000)  returns 0x00 (0000ms, 0347ms total)
T09D0 000:484 JLINK_WriteReg(R1, 0x00B71B00)  returns 0x00 (0000ms, 0347ms total)
T09D0 000:484 JLINK_WriteReg(R2, 0x00000001)  returns 0x00 (0000ms, 0347ms total)
T09D0 000:484 JLINK_WriteReg(R3, 0x00000000)  returns 0x00 (0000ms, 0347ms total)
T09D0 000:484 JLINK_WriteReg(R4, 0x00000000)  returns 0x00 (0000ms, 0347ms total)
T09D0 000:484 JLINK_WriteReg(R5, 0x00000000)  returns 0x00 (0000ms, 0347ms total)
T09D0 000:484 JLINK_WriteReg(R6, 0x00000000)  returns 0x00 (0000ms, 0347ms total)
T09D0 000:484 JLINK_WriteReg(R7, 0x00000000)  returns 0x00 (0000ms, 0347ms total)
T09D0 000:484 JLINK_WriteReg(R8, 0x00000000)  returns 0x00 (0000ms, 0347ms total)
T09D0 000:484 JLINK_WriteReg(R9, 0x20000160)  returns 0x00 (0000ms, 0347ms total)
T09D0 000:484 JLINK_WriteReg(R10, 0x00000000)  returns 0x00 (0000ms, 0347ms total)
T09D0 000:484 JLINK_WriteReg(R11, 0x00000000)  returns 0x00 (0000ms, 0347ms total)
T09D0 000:484 JLINK_WriteReg(R12, 0x00000000)  returns 0x00 (0000ms, 0347ms total)
T09D0 000:484 JLINK_WriteReg(R13 (SP), 0x20000800)  returns 0x00 (0000ms, 0347ms total)
T09D0 000:484 JLINK_WriteReg(R14, 0x20000001)  returns 0x00 (0000ms, 0347ms total)
T09D0 000:484 JLINK_WriteReg(R15 (PC), 0x20000038)  returns 0x00 (0000ms, 0347ms total)
T09D0 000:484 JLINK_WriteReg(XPSR, 0x01000000)  returns 0x00 (0000ms, 0347ms total)
T09D0 000:484 JLINK_WriteReg(MSP, 0x20000800)  returns 0x00 (0000ms, 0347ms total)
T09D0 000:484 JLINK_WriteReg(PSP, 0x20000800)  returns 0x00 (0000ms, 0347ms total)
T09D0 000:484 JLINK_WriteReg(CFBP, 0x00000000)  returns 0x00 (0000ms, 0347ms total)
T09D0 000:484 JLINK_SetBPEx(Addr = 0x20000000, Type = 0xFFFFFFF2) -- CPU_ReadMem(2 bytes @ 0x20000000)  returns 0x00000001 (0001ms, 0348ms total)
T09D0 000:485 JLINK_Go() -- CPU_WriteMem(2 bytes @ 0x20000000) -- CPU_ReadMem(4 bytes @ 0xE0001000) -- CPU_WriteMem(4 bytes @ 0xE0002008) -- CPU_WriteMem(4 bytes @ 0xE000200C) -- CPU_WriteMem(4 bytes @ 0xE0002010) -- CPU_WriteMem(4 bytes @ 0xE0002014) -- CPU_WriteMem(4 bytes @ 0xE0002018) -- CPU_WriteMem(4 bytes @ 0xE000201C) -- CPU_WriteMem(4 bytes @ 0xE0001004) (0007ms, 0355ms total)
T09D0 000:492 JLINK_IsHalted() -- CPU_ReadMem(2 bytes @ 0x20000000)  returns TRUE (0004ms, 0359ms total)
T09D0 000:496 JLINK_ReadReg(R15 (PC))  returns 0x20000000 (0000ms, 0355ms total)
T09D0 000:496 JLINK_ClrBPEx(BPHandle = 0x00000001)  returns 0x00 (0000ms, 0355ms total)
T09D0 000:496 JLINK_ReadReg(R0)  returns 0x00000000 (0000ms, 0355ms total)
T09D0 000:497 JLINK_WriteReg(R0, 0x08000000)  returns 0x00 (0000ms, 0355ms total)
T09D0 000:497 JLINK_WriteReg(R1, 0x00B71B00)  returns 0x00 (0000ms, 0355ms total)
T09D0 000:497 JLINK_WriteReg(R2, 0x00000001)  returns 0x00 (0000ms, 0355ms total)
T09D0 000:497 JLINK_WriteReg(R3, 0x00000000)  returns 0x00 (0000ms, 0355ms total)
T09D0 000:497 JLINK_WriteReg(R4, 0x00000000)  returns 0x00 (0000ms, 0355ms total)
T09D0 000:497 JLINK_WriteReg(R5, 0x00000000)  returns 0x00 (0000ms, 0355ms total)
T09D0 000:497 JLINK_WriteReg(R6, 0x00000000)  returns 0x00 (0000ms, 0355ms total)
T09D0 000:497 JLINK_WriteReg(R7, 0x00000000)  returns 0x00 (0000ms, 0355ms total)
T09D0 000:497 JLINK_WriteReg(R8, 0x00000000)  returns 0x00 (0000ms, 0355ms total)
T09D0 000:497 JLINK_WriteReg(R9, 0x20000160)  returns 0x00 (0000ms, 0355ms total)
T09D0 000:497 JLINK_WriteReg(R10, 0x00000000)  returns 0x00 (0000ms, 0355ms total)
T09D0 000:497 JLINK_WriteReg(R11, 0x00000000)  returns 0x00 (0000ms, 0355ms total)
T09D0 000:497 JLINK_WriteReg(R12, 0x00000000)  returns 0x00 (0000ms, 0355ms total)
T09D0 000:497 JLINK_WriteReg(R13 (SP), 0x20000800)  returns 0x00 (0000ms, 0355ms total)
T09D0 000:497 JLINK_WriteReg(R14, 0x20000001)  returns 0x00 (0000ms, 0355ms total)
T09D0 000:497 JLINK_WriteReg(R15 (PC), 0x2000007C)  returns 0x00 (0000ms, 0355ms total)
T09D0 000:497 JLINK_WriteReg(XPSR, 0x01000000)  returns 0x00 (0000ms, 0355ms total)
T09D0 000:498 JLINK_WriteReg(MSP, 0x20000800)  returns 0x00 (0000ms, 0356ms total)
T09D0 000:498 JLINK_WriteReg(PSP, 0x20000800)  returns 0x00 (0000ms, 0356ms total)
T09D0 000:498 JLINK_WriteReg(CFBP, 0x00000000)  returns 0x00 (0000ms, 0356ms total)
T09D0 000:498 JLINK_SetBPEx(Addr = 0x20000000, Type = 0xFFFFFFF2)  returns 0x00000002 (0000ms, 0356ms total)
T09D0 000:498 JLINK_Go() -- CPU_ReadMem(4 bytes @ 0xE0001000) (0003ms, 0359ms total)
T09D0 000:501 JLINK_IsHalted()  returns FALSE (0000ms, 0359ms total)
T09D0 000:658 JLINK_IsHalted() -- CPU_ReadMem(2 bytes @ 0x20000000)  returns TRUE (0003ms, 0362ms total)
T09D0 000:661 JLINK_ReadReg(R15 (PC))  returns 0x20000000 (0000ms, 0359ms total)
T09D0 000:661 JLINK_ClrBPEx(BPHandle = 0x00000002)  returns 0x00 (0000ms, 0359ms total)
T09D0 000:661 JLINK_ReadReg(R0)  returns 0x00000000 (0001ms, 0360ms total)
T09D0 000:714 JLINK_WriteReg(R0, 0x00000001)  returns 0x00 (0000ms, 0360ms total)
T09D0 000:714 JLINK_WriteReg(R1, 0x00B71B00)  returns 0x00 (0000ms, 0360ms total)
T09D0 000:714 JLINK_WriteReg(R2, 0x00000001)  returns 0x00 (0000ms, 0360ms total)
T09D0 000:714 JLINK_WriteReg(R3, 0x00000000)  returns 0x00 (0000ms, 0360ms total)
T09D0 000:714 JLINK_WriteReg(R4, 0x00000000)  returns 0x00 (0000ms, 0360ms total)
T09D0 000:714 JLINK_WriteReg(R5, 0x00000000)  returns 0x00 (0000ms, 0360ms total)
T09D0 000:714 JLINK_WriteReg(R6, 0x00000000)  returns 0x00 (0000ms, 0360ms total)
T09D0 000:714 JLINK_WriteReg(R7, 0x00000000)  returns 0x00 (0000ms, 0360ms total)
T09D0 000:714 JLINK_WriteReg(R8, 0x00000000)  returns 0x00 (0000ms, 0360ms total)
T09D0 000:714 JLINK_WriteReg(R9, 0x20000160)  returns 0x00 (0000ms, 0360ms total)
T09D0 000:714 JLINK_WriteReg(R10, 0x00000000)  returns 0x00 (0000ms, 0360ms total)
T09D0 000:714 JLINK_WriteReg(R11, 0x00000000)  returns 0x00 (0000ms, 0360ms total)
T09D0 000:714 JLINK_WriteReg(R12, 0x00000000)  returns 0x00 (0000ms, 0360ms total)
T09D0 000:714 JLINK_WriteReg(R13 (SP), 0x20000800)  returns 0x00 (0000ms, 0360ms total)
T09D0 000:714 JLINK_WriteReg(R14, 0x20000001)  returns 0x00 (0000ms, 0360ms total)
T09D0 000:714 JLINK_WriteReg(R15 (PC), 0x2000006A)  returns 0x00 (0000ms, 0360ms total)
T09D0 000:714 JLINK_WriteReg(XPSR, 0x01000000)  returns 0x00 (0000ms, 0360ms total)
T09D0 000:714 JLINK_WriteReg(MSP, 0x20000800)  returns 0x00 (0000ms, 0360ms total)
T09D0 000:714 JLINK_WriteReg(PSP, 0x20000800)  returns 0x00 (0000ms, 0360ms total)
T09D0 000:714 JLINK_WriteReg(CFBP, 0x00000000)  returns 0x00 (0000ms, 0360ms total)
T09D0 000:714 JLINK_SetBPEx(Addr = 0x20000000, Type = 0xFFFFFFF2)  returns 0x00000003 (0000ms, 0360ms total)
T09D0 000:714 JLINK_Go() -- CPU_ReadMem(4 bytes @ 0xE0001000) (0003ms, 0363ms total)
T09D0 000:717 JLINK_IsHalted() -- CPU_ReadMem(2 bytes @ 0x20000000)  returns TRUE (0004ms, 0367ms total)
T09D0 000:721 JLINK_ReadReg(R15 (PC))  returns 0x20000000 (0000ms, 0363ms total)
T09D0 000:721 JLINK_ClrBPEx(BPHandle = 0x00000003)  returns 0x00 (0000ms, 0363ms total)
T09D0 000:721 JLINK_ReadReg(R0)  returns 0x00000000 (0000ms, 0363ms total)
T09D0 000:727 JLINK_WriteMem(0x20000000, 0x0164 Bytes, ...) - Data: 00 BE 0A E0 0D 78 2D 06 68 40 08 24 40 00 00 D3 ... -- CPU_WriteMem(356 bytes @ 0x20000000)  returns 0x164 (0004ms, 0367ms total)
T09D0 000:731 JLINK_WriteReg(R0, 0x08000000)  returns 0x00 (0000ms, 0367ms total)
T09D0 000:731 JLINK_WriteReg(R1, 0x00B71B00)  returns 0x00 (0000ms, 0367ms total)
T09D0 000:731 JLINK_WriteReg(R2, 0x00000002)  returns 0x00 (0000ms, 0367ms total)
T09D0 000:731 JLINK_WriteReg(R3, 0x00000000)  returns 0x00 (0000ms, 0367ms total)
T09D0 000:731 JLINK_WriteReg(R4, 0x00000000)  returns 0x00 (0000ms, 0367ms total)
T09D0 000:731 JLINK_WriteReg(R5, 0x00000000)  returns 0x00 (0000ms, 0367ms total)
T09D0 000:731 JLINK_WriteReg(R6, 0x00000000)  returns 0x00 (0000ms, 0367ms total)
T09D0 000:731 JLINK_WriteReg(R7, 0x00000000)  returns 0x00 (0000ms, 0367ms total)
T09D0 000:731 JLINK_WriteReg(R8, 0x00000000)  returns 0x00 (0000ms, 0367ms total)
T09D0 000:731 JLINK_WriteReg(R9, 0x20000160)  returns 0x00 (0000ms, 0367ms total)
T09D0 000:731 JLINK_WriteReg(R10, 0x00000000)  returns 0x00 (0000ms, 0367ms total)
T09D0 000:731 JLINK_WriteReg(R11, 0x00000000)  returns 0x00 (0000ms, 0367ms total)
T09D0 000:731 JLINK_WriteReg(R12, 0x00000000)  returns 0x00 (0000ms, 0367ms total)
T09D0 000:731 JLINK_WriteReg(R13 (SP), 0x20000800)  returns 0x00 (0000ms, 0367ms total)
T09D0 000:731 JLINK_WriteReg(R14, 0x20000001)  returns 0x00 (0000ms, 0367ms total)
T09D0 000:731 JLINK_WriteReg(R15 (PC), 0x20000038)  returns 0x00 (0000ms, 0367ms total)
T09D0 000:732 JLINK_WriteReg(XPSR, 0x01000000)  returns 0x00 (0000ms, 0368ms total)
T09D0 000:732 JLINK_WriteReg(MSP, 0x20000800)  returns 0x00 (0000ms, 0368ms total)
T09D0 000:732 JLINK_WriteReg(PSP, 0x20000800)  returns 0x00 (0000ms, 0368ms total)
T09D0 000:732 JLINK_WriteReg(CFBP, 0x00000000)  returns 0x00 (0000ms, 0368ms total)
T09D0 000:732 JLINK_SetBPEx(Addr = 0x20000000, Type = 0xFFFFFFF2) -- CPU_ReadMem(2 bytes @ 0x20000000)  returns 0x00000004 (0000ms, 0368ms total)
T09D0 000:732 JLINK_Go() -- CPU_WriteMem(2 bytes @ 0x20000000) -- CPU_ReadMem(4 bytes @ 0xE0001000) (0004ms, 0372ms total)
T09D0 000:736 JLINK_IsHalted() -- CPU_ReadMem(2 bytes @ 0x20000000)  returns TRUE (0004ms, 0376ms total)
T09D0 000:740 JLINK_ReadReg(R15 (PC))  returns 0x20000000 (0000ms, 0372ms total)
T09D0 000:740 JLINK_ClrBPEx(BPHandle = 0x00000004)  returns 0x00 (0000ms, 0372ms total)
T09D0 000:740 JLINK_ReadReg(R0)  returns 0x00000000 (0000ms, 0372ms total)
T09D0 000:740 JLINK_WriteMem(0x20000164, 0x0400 Bytes, ...) - Data: E8 09 00 20 45 01 00 08 E1 20 00 08 E3 20 00 08 ... -- CPU_WriteMem(1024 bytes @ 0x20000164)  returns 0x400 (0007ms, 0379ms total)
T09D0 000:747 JLINK_WriteReg(R0, 0x08000000)  returns 0x00 (0000ms, 0379ms total)
T09D0 000:747 JLINK_WriteReg(R1, 0x00000400)  returns 0x00 (0000ms, 0379ms total)
T09D0 000:747 JLINK_WriteReg(R2, 0x20000164)  returns 0x00 (0000ms, 0379ms total)
T09D0 000:747 JLINK_WriteReg(R3, 0x00000000)  returns 0x00 (0001ms, 0380ms total)
T09D0 000:748 JLINK_WriteReg(R4, 0x00000000)  returns 0x00 (0000ms, 0380ms total)
T09D0 000:748 JLINK_WriteReg(R5, 0x00000000)  returns 0x00 (0000ms, 0380ms total)
T09D0 000:748 JLINK_WriteReg(R6, 0x00000000)  returns 0x00 (0000ms, 0380ms total)
T09D0 000:748 JLINK_WriteReg(R7, 0x00000000)  returns 0x00 (0000ms, 0380ms total)
T09D0 000:748 JLINK_WriteReg(R8, 0x00000000)  returns 0x00 (0000ms, 0380ms total)
T09D0 000:748 JLINK_WriteReg(R9, 0x20000160)  returns 0x00 (0000ms, 0380ms total)
T09D0 000:748 JLINK_WriteReg(R10, 0x00000000)  returns 0x00 (0000ms, 0380ms total)
T09D0 000:748 JLINK_WriteReg(R11, 0x00000000)  returns 0x00 (0000ms, 0380ms total)
T09D0 000:748 JLINK_WriteReg(R12, 0x00000000)  returns 0x00 (0000ms, 0380ms total)
T09D0 000:748 JLINK_WriteReg(R13 (SP), 0x20000800)  returns 0x00 (0000ms, 0380ms total)
T09D0 000:748 JLINK_WriteReg(R14, 0x20000001)  returns 0x00 (0000ms, 0380ms total)
T09D0 000:748 JLINK_WriteReg(R15 (PC), 0x200000F4)  returns 0x00 (0000ms, 0380ms total)
T09D0 000:748 JLINK_WriteReg(XPSR, 0x01000000)  returns 0x00 (0000ms, 0380ms total)
T09D0 000:748 JLINK_WriteReg(MSP, 0x20000800)  returns 0x00 (0000ms, 0380ms total)
T09D0 000:748 JLINK_WriteReg(PSP, 0x20000800)  returns 0x00 (0000ms, 0380ms total)
T09D0 000:748 JLINK_WriteReg(CFBP, 0x00000000)  returns 0x00 (0000ms, 0380ms total)
T09D0 000:748 JLINK_SetBPEx(Addr = 0x20000000, Type = 0xFFFFFFF2)  returns 0x00000005 (0000ms, 0380ms total)
T09D0 000:748 JLINK_Go() -- CPU_ReadMem(4 bytes @ 0xE0001000) (0003ms, 0383ms total)
T09D0 000:751 JLINK_IsHalted()  returns FALSE (0001ms, 0384ms total)
T09D0 000:764 JLINK_IsHalted()  returns FALSE (0001ms, 0384ms total)
T09D0 000:769 JLINK_IsHalted()  returns FALSE (0000ms, 0383ms total)
T09D0 000:771 JLINK_IsHalted()  returns FALSE (0000ms, 0383ms total)
T09D0 000:780 JLINK_IsHalted()  returns FALSE (0001ms, 0384ms total)
T09D0 000:783 JLINK_IsHalted() -- CPU_ReadMem(2 bytes @ 0x20000000)  returns TRUE (0004ms, 0387ms total)
T09D0 000:787 JLINK_ReadReg(R15 (PC))  returns 0x20000000 (0000ms, 0383ms total)
T09D0 000:787 JLINK_ClrBPEx(BPHandle = 0x00000005)  returns 0x00 (0000ms, 0383ms total)
T09D0 000:787 JLINK_ReadReg(R0)  returns 0x00000000 (0000ms, 0383ms total)
T09D0 000:787 JLINK_WriteMem(0x20000164, 0x0400 Bytes, ...) - Data: 09 69 21 F0 04 01 4F F0 E0 22 11 61 70 47 00 00 ... -- CPU_WriteMem(1024 bytes @ 0x20000164)  returns 0x400 (0007ms, 0390ms total)
T09D0 000:794 JLINK_WriteReg(R0, 0x08000400)  returns 0x00 (0000ms, 0390ms total)
T09D0 000:794 JLINK_WriteReg(R1, 0x00000400)  returns 0x00 (0001ms, 0391ms total)
T09D0 000:795 JLINK_WriteReg(R2, 0x20000164)  returns 0x00 (0000ms, 0391ms total)
T09D0 000:795 JLINK_WriteReg(R3, 0x00000000)  returns 0x00 (0000ms, 0391ms total)
T09D0 000:795 JLINK_WriteReg(R4, 0x00000000)  returns 0x00 (0000ms, 0391ms total)
T09D0 000:795 JLINK_WriteReg(R5, 0x00000000)  returns 0x00 (0000ms, 0391ms total)
T09D0 000:795 JLINK_WriteReg(R6, 0x00000000)  returns 0x00 (0000ms, 0391ms total)
T09D0 000:795 JLINK_WriteReg(R7, 0x00000000)  returns 0x00 (0000ms, 0391ms total)
T09D0 000:795 JLINK_WriteReg(R8, 0x00000000)  returns 0x00 (0000ms, 0391ms total)
T09D0 000:795 JLINK_WriteReg(R9, 0x20000160)  returns 0x00 (0000ms, 0391ms total)
T09D0 000:795 JLINK_WriteReg(R10, 0x00000000)  returns 0x00 (0000ms, 0391ms total)
T09D0 000:795 JLINK_WriteReg(R11, 0x00000000)  returns 0x00 (0000ms, 0391ms total)
T09D0 000:795 JLINK_WriteReg(R12, 0x00000000)  returns 0x00 (0000ms, 0391ms total)
T09D0 000:795 JLINK_WriteReg(R13 (SP), 0x20000800)  returns 0x00 (0000ms, 0391ms total)
T09D0 000:795 JLINK_WriteReg(R14, 0x20000001)  returns 0x00 (0000ms, 0391ms total)
T09D0 000:795 JLINK_WriteReg(R15 (PC), 0x200000F4)  returns 0x00 (0000ms, 0391ms total)
T09D0 000:795 JLINK_WriteReg(XPSR, 0x01000000)  returns 0x00 (0000ms, 0391ms total)
T09D0 000:795 JLINK_WriteReg(MSP, 0x20000800)  returns 0x00 (0000ms, 0391ms total)
T09D0 000:795 JLINK_WriteReg(PSP, 0x20000800)  returns 0x00 (0000ms, 0391ms total)
T09D0 000:795 JLINK_WriteReg(CFBP, 0x00000000)  returns 0x00 (0000ms, 0391ms total)
T09D0 000:795 JLINK_SetBPEx(Addr = 0x20000000, Type = 0xFFFFFFF2)  returns 0x00000006 (0000ms, 0391ms total)
T09D0 000:795 JLINK_Go() -- CPU_ReadMem(4 bytes @ 0xE0001000) (0003ms, 0394ms total)
T09D0 000:798 JLINK_IsHalted()  returns FALSE (0001ms, 0395ms total)
T09D0 000:807 JLINK_IsHalted()  returns FALSE (0001ms, 0395ms total)
T09D0 000:810 JLINK_IsHalted()  returns FALSE (0000ms, 0394ms total)
T09D0 000:812 JLINK_IsHalted()  returns FALSE (0000ms, 0394ms total)
T09D0 000:814 JLINK_IsHalted()  returns FALSE (0001ms, 0395ms total)
T09D0 000:817 JLINK_IsHalted()  returns FALSE (0000ms, 0394ms total)
T09D0 000:823 JLINK_IsHalted()  returns FALSE (0000ms, 0394ms total)
T09D0 000:825 JLINK_IsHalted()  returns FALSE (0001ms, 0395ms total)
T09D0 000:828 JLINK_IsHalted()  returns FALSE (0000ms, 0394ms total)
T09D0 000:830 JLINK_IsHalted() -- CPU_ReadMem(2 bytes @ 0x20000000)  returns TRUE (0003ms, 0397ms total)
T09D0 000:833 JLINK_ReadReg(R15 (PC))  returns 0x20000000 (0000ms, 0394ms total)
T09D0 000:833 JLINK_ClrBPEx(BPHandle = 0x00000006)  returns 0x00 (0000ms, 0394ms total)
T09D0 000:833 JLINK_ReadReg(R0)  returns 0x00000000 (0000ms, 0394ms total)
T09D0 000:834 JLINK_WriteMem(0x20000164, 0x0400 Bytes, ...) - Data: 00 BF 00 BF 70 47 10 B5 01 46 00 22 00 23 00 20 ... -- CPU_WriteMem(1024 bytes @ 0x20000164)  returns 0x400 (0007ms, 0401ms total)
T09D0 000:841 JLINK_WriteReg(R0, 0x08000800)  returns 0x00 (0000ms, 0401ms total)
T09D0 000:841 JLINK_WriteReg(R1, 0x00000400)  returns 0x00 (0000ms, 0401ms total)
T09D0 000:841 JLINK_WriteReg(R2, 0x20000164)  returns 0x00 (0000ms, 0401ms total)
T09D0 000:841 JLINK_WriteReg(R3, 0x00000000)  returns 0x00 (0000ms, 0401ms total)
T09D0 000:841 JLINK_WriteReg(R4, 0x00000000)  returns 0x00 (0000ms, 0401ms total)
T09D0 000:841 JLINK_WriteReg(R5, 0x00000000)  returns 0x00 (0000ms, 0401ms total)
T09D0 000:841 JLINK_WriteReg(R6, 0x00000000)  returns 0x00 (0000ms, 0401ms total)
T09D0 000:841 JLINK_WriteReg(R7, 0x00000000)  returns 0x00 (0000ms, 0401ms total)
T09D0 000:841 JLINK_WriteReg(R8, 0x00000000)  returns 0x00 (0000ms, 0401ms total)
T09D0 000:841 JLINK_WriteReg(R9, 0x20000160)  returns 0x00 (0000ms, 0401ms total)
T09D0 000:841 JLINK_WriteReg(R10, 0x00000000)  returns 0x00 (0000ms, 0401ms total)
T09D0 000:841 JLINK_WriteReg(R11, 0x00000000)  returns 0x00 (0000ms, 0401ms total)
T09D0 000:841 JLINK_WriteReg(R12, 0x00000000)  returns 0x00 (0000ms, 0401ms total)
T09D0 000:841 JLINK_WriteReg(R13 (SP), 0x20000800)  returns 0x00 (0000ms, 0401ms total)
T09D0 000:841 JLINK_WriteReg(R14, 0x20000001)  returns 0x00 (0000ms, 0401ms total)
T09D0 000:841 JLINK_WriteReg(R15 (PC), 0x200000F4)  returns 0x00 (0000ms, 0401ms total)
T09D0 000:841 JLINK_WriteReg(XPSR, 0x01000000)  returns 0x00 (0000ms, 0401ms total)
T09D0 000:841 JLINK_WriteReg(MSP, 0x20000800)  returns 0x00 (0000ms, 0401ms total)
T09D0 000:841 JLINK_WriteReg(PSP, 0x20000800)  returns 0x00 (0000ms, 0401ms total)
T09D0 000:841 JLINK_WriteReg(CFBP, 0x00000000)  returns 0x00 (0000ms, 0401ms total)
T09D0 000:841 JLINK_SetBPEx(Addr = 0x20000000, Type = 0xFFFFFFF2)  returns 0x00000007 (0000ms, 0401ms total)
T09D0 000:841 JLINK_Go() -- CPU_ReadMem(4 bytes @ 0xE0001000) (0004ms, 0405ms total)
T09D0 000:845 JLINK_IsHalted()  returns FALSE (0001ms, 0406ms total)
T09D0 000:856 JLINK_IsHalted()  returns FALSE (0001ms, 0406ms total)
T09D0 000:859 JLINK_IsHalted()  returns FALSE (0001ms, 0406ms total)
T09D0 000:872 JLINK_IsHalted()  returns FALSE (0000ms, 0405ms total)
T09D0 000:874 JLINK_IsHalted()  returns FALSE (0000ms, 0405ms total)
T09D0 000:876 JLINK_IsHalted() -- CPU_ReadMem(2 bytes @ 0x20000000)  returns TRUE (0004ms, 0409ms total)
T09D0 000:880 JLINK_ReadReg(R15 (PC))  returns 0x20000000 (0000ms, 0405ms total)
T09D0 000:880 JLINK_ClrBPEx(BPHandle = 0x00000007)  returns 0x00 (0000ms, 0405ms total)
T09D0 000:880 JLINK_ReadReg(R0)  returns 0x00000000 (0000ms, 0405ms total)
T09D0 000:880 JLINK_WriteMem(0x20000164, 0x0400 Bytes, ...) - Data: C0 FE DD F8 00 A0 E0 88 B0 F5 00 7F 0A D1 4F EA ... -- CPU_WriteMem(1024 bytes @ 0x20000164)  returns 0x400 (0007ms, 0412ms total)
T09D0 000:887 JLINK_WriteReg(R0, 0x08000C00)  returns 0x00 (0000ms, 0412ms total)
T09D0 000:887 JLINK_WriteReg(R1, 0x00000400)  returns 0x00 (0000ms, 0412ms total)
T09D0 000:887 JLINK_WriteReg(R2, 0x20000164)  returns 0x00 (0000ms, 0412ms total)
T09D0 000:887 JLINK_WriteReg(R3, 0x00000000)  returns 0x00 (0000ms, 0412ms total)
T09D0 000:887 JLINK_WriteReg(R4, 0x00000000)  returns 0x00 (0000ms, 0412ms total)
T09D0 000:887 JLINK_WriteReg(R5, 0x00000000)  returns 0x00 (0000ms, 0412ms total)
T09D0 000:888 JLINK_WriteReg(R6, 0x00000000)  returns 0x00 (0000ms, 0413ms total)
T09D0 000:888 JLINK_WriteReg(R7, 0x00000000)  returns 0x00 (0000ms, 0413ms total)
T09D0 000:888 JLINK_WriteReg(R8, 0x00000000)  returns 0x00 (0000ms, 0413ms total)
T09D0 000:888 JLINK_WriteReg(R9, 0x20000160)  returns 0x00 (0000ms, 0413ms total)
T09D0 000:888 JLINK_WriteReg(R10, 0x00000000)  returns 0x00 (0000ms, 0413ms total)
T09D0 000:888 JLINK_WriteReg(R11, 0x00000000)  returns 0x00 (0000ms, 0413ms total)
T09D0 000:888 JLINK_WriteReg(R12, 0x00000000)  returns 0x00 (0000ms, 0413ms total)
T09D0 000:888 JLINK_WriteReg(R13 (SP), 0x20000800)  returns 0x00 (0000ms, 0413ms total)
T09D0 000:888 JLINK_WriteReg(R14, 0x20000001)  returns 0x00 (0000ms, 0413ms total)
T09D0 000:888 JLINK_WriteReg(R15 (PC), 0x200000F4)  returns 0x00 (0000ms, 0413ms total)
T09D0 000:888 JLINK_WriteReg(XPSR, 0x01000000)  returns 0x00 (0000ms, 0413ms total)
T09D0 000:888 JLINK_WriteReg(MSP, 0x20000800)  returns 0x00 (0000ms, 0413ms total)
T09D0 000:888 JLINK_WriteReg(PSP, 0x20000800)  returns 0x00 (0000ms, 0413ms total)
T09D0 000:888 JLINK_WriteReg(CFBP, 0x00000000)  returns 0x00 (0000ms, 0413ms total)
T09D0 000:888 JLINK_SetBPEx(Addr = 0x20000000, Type = 0xFFFFFFF2)  returns 0x00000008 (0000ms, 0413ms total)
T09D0 000:888 JLINK_Go() -- CPU_ReadMem(4 bytes @ 0xE0001000) (0003ms, 0416ms total)
T09D0 000:891 JLINK_IsHalted()  returns FALSE (0001ms, 0417ms total)
T09D0 000:904 JLINK_IsHalted()  returns FALSE (0001ms, 0417ms total)
T09D0 000:907 JLINK_IsHalted()  returns FALSE (0001ms, 0417ms total)
T09D0 000:910 JLINK_IsHalted()  returns FALSE (0001ms, 0417ms total)
T09D0 000:913 JLINK_IsHalted()  returns FALSE (0000ms, 0416ms total)
T09D0 000:915 JLINK_IsHalted()  returns FALSE (0001ms, 0417ms total)
T09D0 000:923 JLINK_IsHalted() -- CPU_ReadMem(2 bytes @ 0x20000000)  returns TRUE (0004ms, 0420ms total)
T09D0 000:927 JLINK_ReadReg(R15 (PC))  returns 0x20000000 (0000ms, 0416ms total)
T09D0 000:927 JLINK_ClrBPEx(BPHandle = 0x00000008)  returns 0x00 (0000ms, 0416ms total)
T09D0 000:927 JLINK_ReadReg(R0)  returns 0x00000000 (0000ms, 0416ms total)
T09D0 000:927 JLINK_WriteMem(0x20000164, 0x0400 Bytes, ...) - Data: 4F F6 8F 73 1A 40 4B 88 1A 43 8D 4B 98 42 07 D0 ... -- CPU_WriteMem(1024 bytes @ 0x20000164)  returns 0x400 (0007ms, 0423ms total)
T09D0 000:934 JLINK_WriteReg(R0, 0x08001000)  returns 0x00 (0000ms, 0423ms total)
T09D0 000:934 JLINK_WriteReg(R1, 0x00000400)  returns 0x00 (0001ms, 0424ms total)
T09D0 000:935 JLINK_WriteReg(R2, 0x20000164)  returns 0x00 (0000ms, 0424ms total)
T09D0 000:935 JLINK_WriteReg(R3, 0x00000000)  returns 0x00 (0000ms, 0424ms total)
T09D0 000:935 JLINK_WriteReg(R4, 0x00000000)  returns 0x00 (0000ms, 0424ms total)
T09D0 000:935 JLINK_WriteReg(R5, 0x00000000)  returns 0x00 (0000ms, 0424ms total)
T09D0 000:935 JLINK_WriteReg(R6, 0x00000000)  returns 0x00 (0000ms, 0424ms total)
T09D0 000:935 JLINK_WriteReg(R7, 0x00000000)  returns 0x00 (0000ms, 0424ms total)
T09D0 000:935 JLINK_WriteReg(R8, 0x00000000)  returns 0x00 (0000ms, 0424ms total)
T09D0 000:935 JLINK_WriteReg(R9, 0x20000160)  returns 0x00 (0000ms, 0424ms total)
T09D0 000:935 JLINK_WriteReg(R10, 0x00000000)  returns 0x00 (0000ms, 0424ms total)
T09D0 000:935 JLINK_WriteReg(R11, 0x00000000)  returns 0x00 (0000ms, 0424ms total)
T09D0 000:935 JLINK_WriteReg(R12, 0x00000000)  returns 0x00 (0000ms, 0424ms total)
T09D0 000:935 JLINK_WriteReg(R13 (SP), 0x20000800)  returns 0x00 (0000ms, 0424ms total)
T09D0 000:935 JLINK_WriteReg(R14, 0x20000001)  returns 0x00 (0000ms, 0424ms total)
T09D0 000:935 JLINK_WriteReg(R15 (PC), 0x200000F4)  returns 0x00 (0000ms, 0424ms total)
T09D0 000:935 JLINK_WriteReg(XPSR, 0x01000000)  returns 0x00 (0000ms, 0424ms total)
T09D0 000:935 JLINK_WriteReg(MSP, 0x20000800)  returns 0x00 (0000ms, 0424ms total)
T09D0 000:935 JLINK_WriteReg(PSP, 0x20000800)  returns 0x00 (0000ms, 0424ms total)
T09D0 000:935 JLINK_WriteReg(CFBP, 0x00000000)  returns 0x00 (0000ms, 0424ms total)
T09D0 000:935 JLINK_SetBPEx(Addr = 0x20000000, Type = 0xFFFFFFF2)  returns 0x00000009 (0000ms, 0424ms total)
T09D0 000:935 JLINK_Go() -- CPU_ReadMem(4 bytes @ 0xE0001000) (0003ms, 0427ms total)
T09D0 000:938 JLINK_IsHalted()  returns FALSE (0001ms, 0428ms total)
T09D0 000:944 JLINK_IsHalted()  returns FALSE (0000ms, 0427ms total)
T09D0 000:951 JLINK_IsHalted()  returns FALSE (0001ms, 0428ms total)
T09D0 000:954 JLINK_IsHalted()  returns FALSE (0000ms, 0427ms total)
T09D0 000:956 JLINK_IsHalted()  returns FALSE (0000ms, 0427ms total)
T09D0 000:963 JLINK_IsHalted()  returns FALSE (0000ms, 0427ms total)
T09D0 000:965 JLINK_IsHalted()  returns FALSE (0000ms, 0427ms total)
T09D0 000:967 JLINK_IsHalted()  returns FALSE (0000ms, 0427ms total)
T09D0 000:970 JLINK_IsHalted() -- CPU_ReadMem(2 bytes @ 0x20000000)  returns TRUE (0003ms, 0430ms total)
T09D0 000:973 JLINK_ReadReg(R15 (PC))  returns 0x20000000 (0000ms, 0427ms total)
T09D0 000:973 JLINK_ClrBPEx(BPHandle = 0x00000009)  returns 0x00 (0000ms, 0427ms total)
T09D0 000:973 JLINK_ReadReg(R0)  returns 0x00000000 (0000ms, 0427ms total)
T09D0 000:974 JLINK_WriteMem(0x20000164, 0x0400 Bytes, ...) - Data: 0C 46 15 46 00 22 00 21 00 26 07 8C 4F F6 EF 7C ... -- CPU_WriteMem(1024 bytes @ 0x20000164)  returns 0x400 (0007ms, 0434ms total)
T09D0 000:981 JLINK_WriteReg(R0, 0x08001400)  returns 0x00 (0000ms, 0434ms total)
T09D0 000:981 JLINK_WriteReg(R1, 0x00000400)  returns 0x00 (0000ms, 0434ms total)
T09D0 000:981 JLINK_WriteReg(R2, 0x20000164)  returns 0x00 (0000ms, 0434ms total)
T09D0 000:981 JLINK_WriteReg(R3, 0x00000000)  returns 0x00 (0000ms, 0434ms total)
T09D0 000:981 JLINK_WriteReg(R4, 0x00000000)  returns 0x00 (0000ms, 0434ms total)
T09D0 000:981 JLINK_WriteReg(R5, 0x00000000)  returns 0x00 (0000ms, 0434ms total)
T09D0 000:981 JLINK_WriteReg(R6, 0x00000000)  returns 0x00 (0000ms, 0434ms total)
T09D0 000:981 JLINK_WriteReg(R7, 0x00000000)  returns 0x00 (0000ms, 0434ms total)
T09D0 000:981 JLINK_WriteReg(R8, 0x00000000)  returns 0x00 (0000ms, 0434ms total)
T09D0 000:981 JLINK_WriteReg(R9, 0x20000160)  returns 0x00 (0000ms, 0434ms total)
T09D0 000:981 JLINK_WriteReg(R10, 0x00000000)  returns 0x00 (0000ms, 0434ms total)
T09D0 000:981 JLINK_WriteReg(R11, 0x00000000)  returns 0x00 (0000ms, 0434ms total)
T09D0 000:981 JLINK_WriteReg(R12, 0x00000000)  returns 0x00 (0000ms, 0434ms total)
T09D0 000:981 JLINK_WriteReg(R13 (SP), 0x20000800)  returns 0x00 (0000ms, 0434ms total)
T09D0 000:981 JLINK_WriteReg(R14, 0x20000001)  returns 0x00 (0000ms, 0434ms total)
T09D0 000:981 JLINK_WriteReg(R15 (PC), 0x200000F4)  returns 0x00 (0000ms, 0434ms total)
T09D0 000:982 JLINK_WriteReg(XPSR, 0x01000000)  returns 0x00 (0000ms, 0434ms total)
T09D0 000:982 JLINK_WriteReg(MSP, 0x20000800)  returns 0x00 (0000ms, 0434ms total)
T09D0 000:982 JLINK_WriteReg(PSP, 0x20000800)  returns 0x00 (0000ms, 0434ms total)
T09D0 000:982 JLINK_WriteReg(CFBP, 0x00000000)  returns 0x00 (0000ms, 0434ms total)
T09D0 000:982 JLINK_SetBPEx(Addr = 0x20000000, Type = 0xFFFFFFF2)  returns 0x0000000A (0000ms, 0434ms total)
T09D0 000:982 JLINK_Go() -- CPU_ReadMem(4 bytes @ 0xE0001000) (0003ms, 0437ms total)
T09D0 000:985 JLINK_IsHalted()  returns FALSE (0001ms, 0438ms total)
T09D0 000:995 JLINK_IsHalted()  returns FALSE (0001ms, 0438ms total)
T09D0 000:998 JLINK_IsHalted()  returns FALSE (0001ms, 0438ms total)
T09D0 001:001 JLINK_IsHalted()  returns FALSE (0001ms, 0438ms total)
T09D0 001:004 JLINK_IsHalted()  returns FALSE (0000ms, 0437ms total)
T09D0 001:006 JLINK_IsHalted()  returns FALSE (0000ms, 0437ms total)
T09D0 001:008 JLINK_IsHalted()  returns FALSE (0000ms, 0437ms total)
T09D0 001:024 JLINK_IsHalted() -- CPU_ReadMem(2 bytes @ 0x20000000)  returns TRUE (0004ms, 0441ms total)
T09D0 001:028 JLINK_ReadReg(R15 (PC))  returns 0x20000000 (0000ms, 0437ms total)
T09D0 001:028 JLINK_ClrBPEx(BPHandle = 0x0000000A)  returns 0x00 (0000ms, 0437ms total)
T09D0 001:028 JLINK_ReadReg(R0)  returns 0x00000000 (0000ms, 0437ms total)
T09D0 001:028 JLINK_WriteMem(0x20000164, 0x0400 Bytes, ...) - Data: 00 22 00 23 01 89 02 8B 03 8C 4F F6 F8 77 39 40 ... -- CPU_WriteMem(1024 bytes @ 0x20000164)  returns 0x400 (0007ms, 0444ms total)
T09D0 001:035 JLINK_WriteReg(R0, 0x08001800)  returns 0x00 (0000ms, 0444ms total)
T09D0 001:035 JLINK_WriteReg(R1, 0x00000400)  returns 0x00 (0000ms, 0444ms total)
T09D0 001:035 JLINK_WriteReg(R2, 0x20000164)  returns 0x00 (0000ms, 0444ms total)
T09D0 001:035 JLINK_WriteReg(R3, 0x00000000)  returns 0x00 (0000ms, 0444ms total)
T09D0 001:035 JLINK_WriteReg(R4, 0x00000000)  returns 0x00 (0000ms, 0444ms total)
T09D0 001:035 JLINK_WriteReg(R5, 0x00000000)  returns 0x00 (0000ms, 0444ms total)
T09D0 001:035 JLINK_WriteReg(R6, 0x00000000)  returns 0x00 (0000ms, 0444ms total)
T09D0 001:035 JLINK_WriteReg(R7, 0x00000000)  returns 0x00 (0000ms, 0444ms total)
T09D0 001:035 JLINK_WriteReg(R8, 0x00000000)  returns 0x00 (0000ms, 0444ms total)
T09D0 001:035 JLINK_WriteReg(R9, 0x20000160)  returns 0x00 (0001ms, 0445ms total)
T09D0 001:036 JLINK_WriteReg(R10, 0x00000000)  returns 0x00 (0000ms, 0445ms total)
T09D0 001:036 JLINK_WriteReg(R11, 0x00000000)  returns 0x00 (0000ms, 0445ms total)
T09D0 001:036 JLINK_WriteReg(R12, 0x00000000)  returns 0x00 (0000ms, 0445ms total)
T09D0 001:036 JLINK_WriteReg(R13 (SP), 0x20000800)  returns 0x00 (0000ms, 0445ms total)
T09D0 001:036 JLINK_WriteReg(R14, 0x20000001)  returns 0x00 (0000ms, 0445ms total)
T09D0 001:036 JLINK_WriteReg(R15 (PC), 0x200000F4)  returns 0x00 (0000ms, 0445ms total)
T09D0 001:036 JLINK_WriteReg(XPSR, 0x01000000)  returns 0x00 (0000ms, 0445ms total)
T09D0 001:036 JLINK_WriteReg(MSP, 0x20000800)  returns 0x00 (0000ms, 0445ms total)
T09D0 001:036 JLINK_WriteReg(PSP, 0x20000800)  returns 0x00 (0000ms, 0445ms total)
T09D0 001:036 JLINK_WriteReg(CFBP, 0x00000000)  returns 0x00 (0000ms, 0445ms total)
T09D0 001:036 JLINK_SetBPEx(Addr = 0x20000000, Type = 0xFFFFFFF2)  returns 0x0000000B (0000ms, 0445ms total)
T09D0 001:036 JLINK_Go() -- CPU_ReadMem(4 bytes @ 0xE0001000) (0003ms, 0448ms total)
T09D0 001:039 JLINK_IsHalted()  returns FALSE (0000ms, 0448ms total)
T09D0 001:047 JLINK_IsHalted()  returns FALSE (0000ms, 0448ms total)
T09D0 001:049 JLINK_IsHalted()  returns FALSE (0000ms, 0448ms total)
T09D0 001:056 JLINK_IsHalted()  returns FALSE (0000ms, 0448ms total)
T09D0 001:058 JLINK_IsHalted()  returns FALSE (0001ms, 0449ms total)
T09D0 001:061 JLINK_IsHalted()  returns FALSE (0000ms, 0448ms total)
T09D0 001:063 JLINK_IsHalted()  returns FALSE (0001ms, 0449ms total)
T09D0 001:066 JLINK_IsHalted()  returns FALSE (0001ms, 0449ms total)
T09D0 001:069 JLINK_IsHalted() -- CPU_ReadMem(2 bytes @ 0x20000000)  returns TRUE (0003ms, 0451ms total)
T09D0 001:072 JLINK_ReadReg(R15 (PC))  returns 0x20000000 (0000ms, 0448ms total)
T09D0 001:072 JLINK_ClrBPEx(BPHandle = 0x0000000B)  returns 0x00 (0000ms, 0448ms total)
T09D0 001:072 JLINK_ReadReg(R0)  returns 0x00000000 (0000ms, 0448ms total)
T09D0 001:072 JLINK_WriteMem(0x20000164, 0x0400 Bytes, ...) - Data: 88 8C 70 47 01 46 08 8D 70 47 02 46 00 20 13 8A ... -- CPU_WriteMem(1024 bytes @ 0x20000164)  returns 0x400 (0007ms, 0455ms total)
T09D0 001:079 JLINK_WriteReg(R0, 0x08001C00)  returns 0x00 (0000ms, 0455ms total)
T09D0 001:079 JLINK_WriteReg(R1, 0x00000400)  returns 0x00 (0000ms, 0455ms total)
T09D0 001:079 JLINK_WriteReg(R2, 0x20000164)  returns 0x00 (0000ms, 0455ms total)
T09D0 001:079 JLINK_WriteReg(R3, 0x00000000)  returns 0x00 (0000ms, 0455ms total)
T09D0 001:079 JLINK_WriteReg(R4, 0x00000000)  returns 0x00 (0000ms, 0455ms total)
T09D0 001:079 JLINK_WriteReg(R5, 0x00000000)  returns 0x00 (0000ms, 0455ms total)
T09D0 001:079 JLINK_WriteReg(R6, 0x00000000)  returns 0x00 (0000ms, 0455ms total)
T09D0 001:079 JLINK_WriteReg(R7, 0x00000000)  returns 0x00 (0000ms, 0455ms total)
T09D0 001:079 JLINK_WriteReg(R8, 0x00000000)  returns 0x00 (0001ms, 0456ms total)
T09D0 001:080 JLINK_WriteReg(R9, 0x20000160)  returns 0x00 (0000ms, 0456ms total)
T09D0 001:080 JLINK_WriteReg(R10, 0x00000000)  returns 0x00 (0000ms, 0456ms total)
T09D0 001:080 JLINK_WriteReg(R11, 0x00000000)  returns 0x00 (0000ms, 0456ms total)
T09D0 001:080 JLINK_WriteReg(R12, 0x00000000)  returns 0x00 (0000ms, 0456ms total)
T09D0 001:080 JLINK_WriteReg(R13 (SP), 0x20000800)  returns 0x00 (0000ms, 0456ms total)
T09D0 001:080 JLINK_WriteReg(R14, 0x20000001)  returns 0x00 (0000ms, 0456ms total)
T09D0 001:080 JLINK_WriteReg(R15 (PC), 0x200000F4)  returns 0x00 (0000ms, 0456ms total)
T09D0 001:080 JLINK_WriteReg(XPSR, 0x01000000)  returns 0x00 (0000ms, 0456ms total)
T09D0 001:080 JLINK_WriteReg(MSP, 0x20000800)  returns 0x00 (0000ms, 0456ms total)
T09D0 001:080 JLINK_WriteReg(PSP, 0x20000800)  returns 0x00 (0000ms, 0456ms total)
T09D0 001:080 JLINK_WriteReg(CFBP, 0x00000000)  returns 0x00 (0000ms, 0456ms total)
T09D0 001:080 JLINK_SetBPEx(Addr = 0x20000000, Type = 0xFFFFFFF2)  returns 0x0000000C (0000ms, 0456ms total)
T09D0 001:080 JLINK_Go() -- CPU_ReadMem(4 bytes @ 0xE0001000) (0003ms, 0459ms total)
T09D0 001:083 JLINK_IsHalted()  returns FALSE (0001ms, 0460ms total)
T09D0 001:089 JLINK_IsHalted()  returns FALSE (0001ms, 0460ms total)
T09D0 001:092 JLINK_IsHalted()  returns FALSE (0000ms, 0459ms total)
T09D0 001:094 JLINK_IsHalted()  returns FALSE (0001ms, 0460ms total)
T09D0 001:097 JLINK_IsHalted()  returns FALSE (0000ms, 0459ms total)
T09D0 001:099 JLINK_IsHalted()  returns FALSE (0000ms, 0459ms total)
T09D0 001:105 JLINK_IsHalted()  returns FALSE (0000ms, 0459ms total)
T09D0 001:107 JLINK_IsHalted()  returns FALSE (0001ms, 0460ms total)
T09D0 001:110 JLINK_IsHalted()  returns FALSE (0000ms, 0459ms total)
T09D0 001:120 JLINK_IsHalted() -- CPU_ReadMem(2 bytes @ 0x20000000)  returns TRUE (0004ms, 0463ms total)
T09D0 001:124 JLINK_ReadReg(R15 (PC))  returns 0x20000000 (0000ms, 0459ms total)
T09D0 001:124 JLINK_ClrBPEx(BPHandle = 0x0000000C)  returns 0x00 (0000ms, 0459ms total)
T09D0 001:124 JLINK_ReadReg(R0)  returns 0x00000000 (0000ms, 0459ms total)
T09D0 001:124 JLINK_WriteMem(0x20000164, 0x0400 Bytes, ...) - Data: 33 40 01 E0 96 8A 33 40 0C 12 01 26 06 FA 04 F4 ... -- CPU_WriteMem(1024 bytes @ 0x20000164)  returns 0x400 (0008ms, 0467ms total)
T09D0 001:132 JLINK_WriteReg(R0, 0x08002000)  returns 0x00 (0000ms, 0467ms total)
T09D0 001:132 JLINK_WriteReg(R1, 0x00000400)  returns 0x00 (0000ms, 0467ms total)
T09D0 001:132 JLINK_WriteReg(R2, 0x20000164)  returns 0x00 (0000ms, 0467ms total)
T09D0 001:132 JLINK_WriteReg(R3, 0x00000000)  returns 0x00 (0000ms, 0467ms total)
T09D0 001:132 JLINK_WriteReg(R4, 0x00000000)  returns 0x00 (0000ms, 0467ms total)
T09D0 001:132 JLINK_WriteReg(R5, 0x00000000)  returns 0x00 (0000ms, 0467ms total)
T09D0 001:132 JLINK_WriteReg(R6, 0x00000000)  returns 0x00 (0000ms, 0467ms total)
T09D0 001:132 JLINK_WriteReg(R7, 0x00000000)  returns 0x00 (0000ms, 0467ms total)
T09D0 001:132 JLINK_WriteReg(R8, 0x00000000)  returns 0x00 (0000ms, 0467ms total)
T09D0 001:132 JLINK_WriteReg(R9, 0x20000160)  returns 0x00 (0000ms, 0467ms total)
T09D0 001:132 JLINK_WriteReg(R10, 0x00000000)  returns 0x00 (0000ms, 0467ms total)
T09D0 001:132 JLINK_WriteReg(R11, 0x00000000)  returns 0x00 (0000ms, 0467ms total)
T09D0 001:132 JLINK_WriteReg(R12, 0x00000000)  returns 0x00 (0000ms, 0467ms total)
T09D0 001:132 JLINK_WriteReg(R13 (SP), 0x20000800)  returns 0x00 (0000ms, 0467ms total)
T09D0 001:132 JLINK_WriteReg(R14, 0x20000001)  returns 0x00 (0000ms, 0467ms total)
T09D0 001:132 JLINK_WriteReg(R15 (PC), 0x200000F4)  returns 0x00 (0000ms, 0467ms total)
T09D0 001:132 JLINK_WriteReg(XPSR, 0x01000000)  returns 0x00 (0000ms, 0467ms total)
T09D0 001:132 JLINK_WriteReg(MSP, 0x20000800)  returns 0x00 (0000ms, 0467ms total)
T09D0 001:132 JLINK_WriteReg(PSP, 0x20000800)  returns 0x00 (0000ms, 0467ms total)
T09D0 001:132 JLINK_WriteReg(CFBP, 0x00000000)  returns 0x00 (0000ms, 0467ms total)
T09D0 001:132 JLINK_SetBPEx(Addr = 0x20000000, Type = 0xFFFFFFF2)  returns 0x0000000D (0000ms, 0467ms total)
T09D0 001:132 JLINK_Go() -- CPU_ReadMem(4 bytes @ 0xE0001000) (0003ms, 0470ms total)
T09D0 001:135 JLINK_IsHalted()  returns FALSE (0001ms, 0471ms total)
T09D0 001:141 JLINK_IsHalted()  returns FALSE (0001ms, 0471ms total)
T09D0 001:144 JLINK_IsHalted()  returns FALSE (0001ms, 0471ms total)
T09D0 001:147 JLINK_IsHalted()  returns FALSE (0001ms, 0471ms total)
T09D0 001:153 JLINK_IsHalted()  returns FALSE (0001ms, 0471ms total)
T09D0 001:156 JLINK_IsHalted()  returns FALSE (0001ms, 0471ms total)
T09D0 001:159 JLINK_IsHalted()  returns FALSE (0000ms, 0470ms total)
T09D0 001:161 JLINK_IsHalted()  returns FALSE (0000ms, 0470ms total)
T09D0 001:167 JLINK_IsHalted() -- CPU_ReadMem(2 bytes @ 0x20000000)  returns TRUE (0004ms, 0474ms total)
T09D0 001:171 JLINK_ReadReg(R15 (PC))  returns 0x20000000 (0000ms, 0470ms total)
T09D0 001:171 JLINK_ClrBPEx(BPHandle = 0x0000000D)  returns 0x00 (0000ms, 0470ms total)
T09D0 001:171 JLINK_ReadReg(R0)  returns 0x00000000 (0000ms, 0470ms total)
T09D0 001:174 JLINK_WriteMem(0x20000164, 0x0400 Bytes, ...) - Data: D0 D0 45 45 50 52 4F 4D 21 0D 0A 00 D0 B4 65 65 ... -- CPU_WriteMem(1024 bytes @ 0x20000164)  returns 0x400 (0007ms, 0477ms total)
T09D0 001:181 JLINK_WriteReg(R0, 0x08002400)  returns 0x00 (0000ms, 0477ms total)
T09D0 001:181 JLINK_WriteReg(R1, 0x00000400)  returns 0x00 (0000ms, 0477ms total)
T09D0 001:181 JLINK_WriteReg(R2, 0x20000164)  returns 0x00 (0000ms, 0477ms total)
T09D0 001:181 JLINK_WriteReg(R3, 0x00000000)  returns 0x00 (0000ms, 0477ms total)
T09D0 001:181 JLINK_WriteReg(R4, 0x00000000)  returns 0x00 (0000ms, 0477ms total)
T09D0 001:181 JLINK_WriteReg(R5, 0x00000000)  returns 0x00 (0000ms, 0477ms total)
T09D0 001:181 JLINK_WriteReg(R6, 0x00000000)  returns 0x00 (0000ms, 0477ms total)
T09D0 001:181 JLINK_WriteReg(R7, 0x00000000)  returns 0x00 (0000ms, 0477ms total)
T09D0 001:181 JLINK_WriteReg(R8, 0x00000000)  returns 0x00 (0000ms, 0477ms total)
T09D0 001:181 JLINK_WriteReg(R9, 0x20000160)  returns 0x00 (0000ms, 0477ms total)
T09D0 001:182 JLINK_WriteReg(R10, 0x00000000)  returns 0x00 (0000ms, 0477ms total)
T09D0 001:182 JLINK_WriteReg(R11, 0x00000000)  returns 0x00 (0000ms, 0477ms total)
T09D0 001:182 JLINK_WriteReg(R12, 0x00000000)  returns 0x00 (0000ms, 0477ms total)
T09D0 001:182 JLINK_WriteReg(R13 (SP), 0x20000800)  returns 0x00 (0000ms, 0477ms total)
T09D0 001:182 JLINK_WriteReg(R14, 0x20000001)  returns 0x00 (0000ms, 0477ms total)
T09D0 001:182 JLINK_WriteReg(R15 (PC), 0x200000F4)  returns 0x00 (0000ms, 0477ms total)
T09D0 001:182 JLINK_WriteReg(XPSR, 0x01000000)  returns 0x00 (0000ms, 0477ms total)
T09D0 001:182 JLINK_WriteReg(MSP, 0x20000800)  returns 0x00 (0000ms, 0477ms total)
T09D0 001:182 JLINK_WriteReg(PSP, 0x20000800)  returns 0x00 (0000ms, 0477ms total)
T09D0 001:182 JLINK_WriteReg(CFBP, 0x00000000)  returns 0x00 (0000ms, 0477ms total)
T09D0 001:182 JLINK_SetBPEx(Addr = 0x20000000, Type = 0xFFFFFFF2)  returns 0x0000000E (0000ms, 0477ms total)
T09D0 001:182 JLINK_Go() -- CPU_ReadMem(4 bytes @ 0xE0001000) (0004ms, 0481ms total)
T09D0 001:186 JLINK_IsHalted()  returns FALSE (0001ms, 0482ms total)
T09D0 001:195 JLINK_IsHalted()  returns FALSE (0001ms, 0482ms total)
T09D0 001:205 JLINK_IsHalted()  returns FALSE (0001ms, 0482ms total)
T09D0 001:215 JLINK_IsHalted()  returns FALSE (0001ms, 0482ms total)
T09D0 001:218 JLINK_IsHalted() -- CPU_ReadMem(2 bytes @ 0x20000000)  returns TRUE (0004ms, 0485ms total)
T09D0 001:222 JLINK_ReadReg(R15 (PC))  returns 0x20000000 (0000ms, 0481ms total)
T09D0 001:222 JLINK_ClrBPEx(BPHandle = 0x0000000E)  returns 0x00 (0000ms, 0481ms total)
T09D0 001:222 JLINK_ReadReg(R0)  returns 0x00000000 (0000ms, 0481ms total)
T09D0 001:223 JLINK_WriteMem(0x20000164, 0x0400 Bytes, ...) - Data: A4 48 FD F7 1E FF 02 20 FF F7 86 FF C4 F3 07 40 ... -- CPU_WriteMem(1024 bytes @ 0x20000164)  returns 0x400 (0007ms, 0488ms total)
T09D0 001:230 JLINK_WriteReg(R0, 0x08002800)  returns 0x00 (0000ms, 0488ms total)
T09D0 001:230 JLINK_WriteReg(R1, 0x00000400)  returns 0x00 (0000ms, 0488ms total)
T09D0 001:230 JLINK_WriteReg(R2, 0x20000164)  returns 0x00 (0000ms, 0488ms total)
T09D0 001:230 JLINK_WriteReg(R3, 0x00000000)  returns 0x00 (0000ms, 0488ms total)
T09D0 001:231 JLINK_WriteReg(R4, 0x00000000)  returns 0x00 (0000ms, 0489ms total)
T09D0 001:231 JLINK_WriteReg(R5, 0x00000000)  returns 0x00 (0000ms, 0489ms total)
T09D0 001:231 JLINK_WriteReg(R6, 0x00000000)  returns 0x00 (0000ms, 0489ms total)
T09D0 001:231 JLINK_WriteReg(R7, 0x00000000)  returns 0x00 (0000ms, 0489ms total)
T09D0 001:231 JLINK_WriteReg(R8, 0x00000000)  returns 0x00 (0000ms, 0489ms total)
T09D0 001:231 JLINK_WriteReg(R9, 0x20000160)  returns 0x00 (0000ms, 0489ms total)
T09D0 001:231 JLINK_WriteReg(R10, 0x00000000)  returns 0x00 (0000ms, 0489ms total)
T09D0 001:231 JLINK_WriteReg(R11, 0x00000000)  returns 0x00 (0000ms, 0489ms total)
T09D0 001:231 JLINK_WriteReg(R12, 0x00000000)  returns 0x00 (0000ms, 0489ms total)
T09D0 001:231 JLINK_WriteReg(R13 (SP), 0x20000800)  returns 0x00 (0000ms, 0489ms total)
T09D0 001:231 JLINK_WriteReg(R14, 0x20000001)  returns 0x00 (0000ms, 0489ms total)
T09D0 001:231 JLINK_WriteReg(R15 (PC), 0x200000F4)  returns 0x00 (0000ms, 0489ms total)
T09D0 001:231 JLINK_WriteReg(XPSR, 0x01000000)  returns 0x00 (0000ms, 0489ms total)
T09D0 001:231 JLINK_WriteReg(MSP, 0x20000800)  returns 0x00 (0000ms, 0489ms total)
T09D0 001:231 JLINK_WriteReg(PSP, 0x20000800)  returns 0x00 (0000ms, 0489ms total)
T09D0 001:231 JLINK_WriteReg(CFBP, 0x00000000)  returns 0x00 (0000ms, 0489ms total)
T09D0 001:231 JLINK_SetBPEx(Addr = 0x20000000, Type = 0xFFFFFFF2)  returns 0x0000000F (0000ms, 0489ms total)
T09D0 001:232 JLINK_Go() -- CPU_ReadMem(4 bytes @ 0xE0001000) (0003ms, 0493ms total)
T09D0 001:235 JLINK_IsHalted()  returns FALSE (0001ms, 0494ms total)
T09D0 001:264 JLINK_IsHalted()  returns FALSE (0000ms, 0493ms total)
T09D0 001:266 JLINK_IsHalted() -- CPU_ReadMem(2 bytes @ 0x20000000)  returns TRUE (0003ms, 0496ms total)
T09D0 001:270 JLINK_ReadReg(R15 (PC))  returns 0x20000000 (0000ms, 0493ms total)
T09D0 001:270 JLINK_ClrBPEx(BPHandle = 0x0000000F)  returns 0x00 (0000ms, 0493ms total)
T09D0 001:270 JLINK_ReadReg(R0)  returns 0x00000000 (0000ms, 0493ms total)
T09D0 001:270 JLINK_WriteMem(0x20000164, 0x0400 Bytes, ...) - Data: 6F FF 2F 49 08 70 08 46 00 78 01 28 00 D1 10 BD ... -- CPU_WriteMem(1024 bytes @ 0x20000164)  returns 0x400 (0007ms, 0500ms total)
T09D0 001:277 JLINK_WriteReg(R0, 0x08002C00)  returns 0x00 (0000ms, 0500ms total)
T09D0 001:277 JLINK_WriteReg(R1, 0x00000400)  returns 0x00 (0000ms, 0500ms total)
T09D0 001:277 JLINK_WriteReg(R2, 0x20000164)  returns 0x00 (0000ms, 0500ms total)
T09D0 001:277 JLINK_WriteReg(R3, 0x00000000)  returns 0x00 (0000ms, 0500ms total)
T09D0 001:277 JLINK_WriteReg(R4, 0x00000000)  returns 0x00 (0001ms, 0501ms total)
T09D0 001:278 JLINK_WriteReg(R5, 0x00000000)  returns 0x00 (0000ms, 0501ms total)
T09D0 001:278 JLINK_WriteReg(R6, 0x00000000)  returns 0x00 (0000ms, 0501ms total)
T09D0 001:278 JLINK_WriteReg(R7, 0x00000000)  returns 0x00 (0000ms, 0501ms total)
T09D0 001:278 JLINK_WriteReg(R8, 0x00000000)  returns 0x00 (0000ms, 0501ms total)
